T340C 000:003.494   SEGGER J-Link V7.58b Log File
T340C 000:003.587   DLL Compiled: Nov 16 2021 15:00:10
T340C 000:003.594   Logging started @ 2024-04-01 05:28
T340C 000:003.601 - 3.604ms
T340C 000:003.611 JLINK_SetWarnOutHandler(...)
T340C 000:003.619 - 0.011ms
T340C 000:003.626 JLINK_OpenEx(...)
T340C 000:007.816   Firmware: J-Link V9 compiled May  7 2021 16:26:12
T340C 000:008.326   Firmware: J-Link V9 compiled May  7 2021 16:26:12
T340C 000:008.542   Decompressing FW timestamp took 153 us
T340C 000:017.062   Hardware: V9.40
T340C 000:017.103   S/N: 69407300
T340C 000:017.113   OEM: SEGGER
T340C 000:017.122   Feature(s): RDI, GDB, FlashDL, FlashBP, JFlash
T340C 000:020.508   TELNET listener socket opened on port 19021
T340C 000:020.623   WEBSRV WEBSRV_Init(): Starting webserver thread(s)
T340C 000:020.704   WEBSRV Failed to put socket into listener state (port 19080)
T340C 000:020.781   WEBSRV Webserver running on local port 19081
T340C 000:024.117 - 20.510ms returns "O.K."
T340C 000:024.204 JLINK_GetEmuCaps()
T340C 000:024.213 - 0.011ms returns 0xB9FF7BBF
T340C 000:024.221 JLINK_TIF_GetAvailable(...)
T340C 000:024.423 - 0.205ms
T340C 000:024.447 JLINK_SetErrorOutHandler(...)
T340C 000:024.453 - 0.009ms
T340C 000:024.468 JLINK_ExecCommand("ProjectFile = "E:\Ð»½ð³Ç\YT_4_1\JLinkSettings.ini"", ...). 
T340C 000:031.694   Ref file found at: C:\Keil_v5\ARM\Segger\JLinkDevices.ref
T340C 000:031.793   XML referenced by ref file: C:\Program Files\SEGGER\JLink\JLinkDevices.xml
T340C 000:032.389   C:\Program Files\SEGGER\JLink\JLinkDevices.xml evaluated successfully.
T340C 000:050.266   Device "CORTEX-M0" selected.
T340C 000:050.530 - 26.069ms returns 0x00
T340C 000:051.840 JLINK_ExecCommand("Device = LKS32MC038Y6P8", ...). 
T340C 000:052.987   Device "CORTEX-M0" selected.
T340C 000:053.249 - 1.396ms returns 0x00
T340C 000:053.264 JLINK_ExecCommand("DisableConnectionTimeout", ...). 
T340C 000:053.275 - 0.004ms returns 0x01
T340C 000:053.283 JLINK_GetHardwareVersion()
T340C 000:053.290 - 0.010ms returns 94000
T340C 000:053.297 JLINK_GetDLLVersion()
T340C 000:053.304 - 0.009ms returns 75802
T340C 000:053.311 JLINK_GetOEMString(...)
T340C 000:053.327 JLINK_GetFirmwareString(...)
T340C 000:053.334 - 0.010ms
T340C 000:056.407 JLINK_GetDLLVersion()
T340C 000:056.431 - 0.027ms returns 75802
T340C 000:056.439 JLINK_GetCompileDateTime()
T340C 000:056.446 - 0.009ms
T340C 000:057.281 JLINK_GetFirmwareString(...)
T340C 000:057.298 - 0.021ms
T340C 000:058.112 JLINK_GetHardwareVersion()
T340C 000:058.126 - 0.017ms returns 94000
T340C 000:058.961 JLINK_GetSN()
T340C 000:058.975 - 0.017ms returns 69407300
T340C 000:059.786 JLINK_GetOEMString(...)
T340C 000:061.709 JLINK_TIF_Select(JLINKARM_TIF_SWD)
T340C 000:063.009 - 1.312ms returns 0x00
T340C 000:063.042 JLINK_HasError()
T340C 000:063.053 JLINK_SetSpeed(5000)
T340C 000:063.232 - 0.182ms
T340C 000:063.255 JLINK_GetId()
T340C 000:177.482   Found SW-DP with ID 0x0BB11477
T340C 000:181.405   SWD speed too high. Reduced from 4000 kHz to 2700 kHz for stability
T340C 000:186.476   DPIDR: 0x0BB11477
T340C 000:187.607   CoreSight SoC-400 or earlier
T340C 000:188.561   Scanning AP map to find all available APs
T340C 000:190.586   AP[1]: Stopped AP scan as end of AP map has been reached
T340C 000:191.482   AP[0]: AHB-AP (IDR: 0x04770021)
T340C 000:192.339   Iterating through AP map to find AHB-AP to use
T340C 000:194.999   AP[0]: Core found
T340C 000:198.202   AP[0]: AHB-AP ROM base: 0xE00FF000
T340C 000:200.046   CPUID register: 0x410CC200. Implementer code: 0x41 (ARM)
T340C 000:200.894   Found Cortex-M0 r0p0, Little endian.
T340C 000:303.785   -- Max. mem block: 0x00010988
T340C 000:307.831   CPU_ReadMem(4 bytes @ 0xE000EDF0)
T340C 000:308.803   CPU_ReadMem(4 bytes @ 0xE0002000)
T340C 000:313.568   FPUnit: 2 code (BP) slots and 0 literal slots
T340C 000:313.637   CPU_ReadMem(4 bytes @ 0xE000EDFC)
T340C 000:314.294   CPU_ReadMem(4 bytes @ 0xE0001000)
T340C 000:314.943   CPU_WriteMem(4 bytes @ 0xE0001000)
T340C 000:319.221   CoreSight components:
T340C 000:322.208   ROMTbl[0] @ E00FF000
T340C 000:322.257   CPU_ReadMem(64 bytes @ 0xE00FF000)
T340C 000:323.966   CPU_ReadMem(32 bytes @ 0xE000EFE0)
T340C 000:327.560   [0][0]: E000E000 CID B105E00D PID 000BB008 SCS
T340C 000:327.625   CPU_ReadMem(32 bytes @ 0xE0001FE0)
T340C 000:332.309   [0][1]: E0001000 CID B105E00D PID 000BB00A DWT
T340C 000:332.356   CPU_ReadMem(32 bytes @ 0xE0002FE0)
T340C 000:335.098   [0][2]: E0002000 CID B105E00D PID 000BB00B FPB
T340C 000:335.637 - 272.396ms returns 0x0BB11477
T340C 000:335.706 JLINK_GetDLLVersion()
T340C 000:335.723 - 0.023ms returns 75802
T340C 000:335.737 JLINK_CORE_GetFound()
T340C 000:335.750 - 0.020ms returns 0x60000FF
T340C 000:335.771 JLINK_GetDebugInfo(0x100 = JLINKARM_ROM_TABLE_ADDR_INDEX)
T340C 000:335.793   Value=0xE00FF000
T340C 000:335.812 - 0.046ms returns 0
T340C 000:337.425 JLINK_GetDebugInfo(0x100 = JLINKARM_ROM_TABLE_ADDR_INDEX)
T340C 000:337.452   Value=0xE00FF000
T340C 000:337.470 - 0.051ms returns 0
T340C 000:337.484 JLINK_GetDebugInfo(0x101 = JLINKARM_DEBUG_INFO_ETM_ADDR_INDEX)
T340C 000:337.498   Value=0x00000000
T340C 000:337.516 - 0.038ms returns 0
T340C 000:337.534 JLINK_ReadMemEx(0xE0041FF0, 0x10 Bytes, Flags = 0x02000004)
T340C 000:337.569   CPU_ReadMem(16 bytes @ 0xE0041FF0)
T340C 000:338.727   Data:  00 00 00 00 00 00 00 00 00 00 00 00 00 00 00 00
T340C 000:338.766 - 1.238ms returns 16 (0x10)
T340C 000:338.814 JLINK_GetDebugInfo(0x102 = JLINKARM_DEBUG_INFO_MTB_ADDR_INDEX)
T340C 000:338.831   Value=0x00000000
T340C 000:338.849 - 0.040ms returns 0
T340C 000:338.863 JLINK_GetDebugInfo(0x103 = JLINKARM_DEBUG_INFO_TPIU_ADDR_INDEX)
T340C 000:338.875   Value=0x00000000
T340C 000:338.893 - 0.036ms returns 0
T340C 000:338.907 JLINK_ReadMemEx(0xE0040FF0, 0x10 Bytes, Flags = 0x02000004)
T340C 000:338.929   CPU_ReadMem(16 bytes @ 0xE0040FF0)
T340C 000:339.991   Data:  00 00 00 00 00 00 00 00 00 00 00 00 00 00 00 00
T340C 000:340.026 - 1.126ms returns 16 (0x10)
T340C 000:340.087 JLINK_GetDebugInfo(0x104 = JLINKARM_DEBUG_INFO_ITM_ADDR_INDEX)
T340C 000:340.104   Value=0xE0000000
T340C 000:340.122 - 0.041ms returns 0
T340C 000:340.136 JLINK_GetDebugInfo(0x105 = JLINKARM_DEBUG_INFO_DWT_ADDR_INDEX)
T340C 000:340.149   Value=0xE0001000
T340C 000:340.166 - 0.036ms returns 0
T340C 000:340.180 JLINK_GetDebugInfo(0x106 = JLINKARM_DEBUG_INFO_FPB_ADDR_INDEX)
T340C 000:340.192   Value=0xE0002000
T340C 000:340.209 - 0.035ms returns 0
T340C 000:340.222 JLINK_GetDebugInfo(0x107 = JLINKARM_DEBUG_INFO_NVIC_ADDR_INDEX)
T340C 000:340.235   Value=0xE000E000
T340C 000:340.252 - 0.035ms returns 0
T340C 000:340.265 JLINK_GetDebugInfo(0x10C = JLINKARM_DEBUG_INFO_DBG_ADDR_INDEX)
T340C 000:340.280   Value=0xE000EDF0
T340C 000:340.297 - 0.037ms returns 0
T340C 000:340.310 JLINK_GetDebugInfo(0x01 = Unknown)
T340C 000:340.323   Value=0x00000000
T340C 000:340.340 - 0.035ms returns 0
T340C 000:340.353 JLINK_ReadMemU32(0xE000ED00, 0x1 Items)
T340C 000:340.375   CPU_ReadMem(4 bytes @ 0xE000ED00)
T340C 000:341.368   Data:  00 C2 0C 41
T340C 000:341.397   Debug reg: CPUID
T340C 000:341.415 - 1.067ms returns 1 (0x1)
T340C 000:341.469 JLINK_GetDebugInfo(0x10F = JLINKARM_DEBUG_INFO_HAS_CORTEX_M_SECURITY_EXT_INDEX)
T340C 000:341.486   Value=0x00000000
T340C 000:341.504 - 0.041ms returns 0
T340C 000:341.522 JLINK_HasError()
T340C 000:341.537 JLINK_SetResetType(JLINKARM_CM3_RESET_TYPE_NORMAL)
T340C 000:341.550 - 0.019ms returns JLINKARM_CM3_RESET_TYPE_NORMAL
T340C 000:341.564 JLINK_Reset()
T340C 000:342.105   CPU is running
T340C 000:342.135   CPU_WriteMem(4 bytes @ 0xE000EDF0)
T340C 000:342.864   CPU is running
T340C 000:342.893   CPU_WriteMem(4 bytes @ 0xE000EDFC)
T340C 000:345.528   Reset: Halt core after reset via DEMCR.VC_CORERESET.
T340C 000:347.709   Reset: Reset device via AIRCR.SYSRESETREQ.
T340C 000:347.748   CPU is running
T340C 000:347.770   CPU_WriteMem(4 bytes @ 0xE000ED0C)
T340C 000:401.493   CPU_ReadMem(4 bytes @ 0xE000EDF0)
T340C 000:402.786   CPU_ReadMem(4 bytes @ 0xE000EDF0)
T340C 000:403.970   CPU is running
T340C 000:404.258   CPU_WriteMem(4 bytes @ 0xE000EDF0)
T340C 000:405.245   CPU is running
T340C 000:405.377   CPU_WriteMem(4 bytes @ 0xE000EDFC)
T340C 000:412.566   CPU_ReadMem(4 bytes @ 0xE000EDF0)
T340C 000:419.567   CPU_WriteMem(4 bytes @ 0xE0002000)
T340C 000:420.921   CPU_ReadMem(4 bytes @ 0xE000EDFC)
T340C 000:422.038   CPU_ReadMem(4 bytes @ 0xE0001000)
T340C 000:422.999   CPU_WriteMem(4 bytes @ 0xE0001000)
T340C 000:423.997 - 82.503ms
T340C 000:424.281 JLINK_Halt()
T340C 000:424.342 - 0.083ms returns 0x00
T340C 000:424.396 JLINK_ReadMemU32(0xE000EDF0, 0x1 Items)
T340C 000:424.467   CPU_ReadMem(4 bytes @ 0xE000EDF0)
T340C 000:425.494   Data:  03 00 03 00
T340C 000:425.584   Debug reg: DHCSR
T340C 000:425.640 - 1.261ms returns 1 (0x1)
T340C 000:425.815 JLINK_WriteU32_64(0xE000EDF0, 0xA05F0003)
T340C 000:425.866   Debug reg: DHCSR
T340C 000:427.849   CPU_WriteMem(4 bytes @ 0xE000EDF0)
T340C 000:428.817 - 3.060ms returns 0 (0x00000000)
T340C 000:429.041 JLINK_WriteU32_64(0xE000EDFC, 0x01000000)
T340C 000:429.099   Debug reg: DEMCR
T340C 000:429.199   CPU_WriteMem(4 bytes @ 0xE000EDFC)
T340C 000:430.074 - 1.079ms returns 0 (0x00000000)
T340C 000:439.520 JLINK_GetHWStatus(...)
T340C 000:440.138 - 0.637ms returns 0
T340C 000:445.004 JLINK_GetNumBPUnits(Type = 0xFFFFFF00)
T340C 000:445.034 - 0.036ms returns 0x02
T340C 000:445.049 JLINK_GetNumBPUnits(Type = 0xF0)
T340C 000:445.062 - 0.019ms returns 0x2000
T340C 000:445.075 JLINK_GetNumWPUnits()
T340C 000:445.088 - 0.018ms returns 2
T340C 000:449.415 JLINK_GetSpeed()
T340C 000:449.440 - 0.032ms returns 2400
T340C 000:452.324 JLINK_ReadMemU32(0xE000E004, 0x1 Items)
T340C 000:452.369   CPU_ReadMem(4 bytes @ 0xE000E004)
T340C 000:452.906   Data:  00 00 00 00
T340C 000:452.939 - 0.621ms returns 1 (0x1)
T340C 000:453.004 JLINK_Halt()
T340C 000:453.021 - 0.023ms returns 0x00
T340C 000:453.034 JLINK_IsHalted()
T340C 000:453.047 - 0.019ms returns TRUE
T340C 000:456.014 JLINK_WriteMem(0x20000000, 0x18C Bytes, ...)
T340C 000:456.041   Data:  00 BE 0A E0 0D 78 2D 06 68 40 08 24 40 00 00 D3 ...
T340C 000:457.831   CPU_WriteMem(396 bytes @ 0x20000000)
T340C 000:461.922 - 5.945ms returns 0x18C
T340C 000:462.060 JLINK_HasError()
T340C 000:462.081 JLINK_WriteReg(R0, 0x00000000)
T340C 000:462.116 - 0.043ms returns 0
T340C 000:462.132 JLINK_WriteReg(R1, 0x00B71B00)
T340C 000:462.155 - 0.030ms returns 0
T340C 000:462.170 JLINK_WriteReg(R2, 0x00000001)
T340C 000:462.189 - 0.026ms returns 0
T340C 000:462.204 JLINK_WriteReg(R3, 0x00000000)
T340C 000:462.223 - 0.025ms returns 0
T340C 000:462.238 JLINK_WriteReg(R4, 0x00000000)
T340C 000:462.256 - 0.025ms returns 0
T340C 000:462.271 JLINK_WriteReg(R5, 0x00000000)
T340C 000:462.289 - 0.025ms returns 0
T340C 000:462.304 JLINK_WriteReg(R6, 0x00000000)
T340C 000:462.322 - 0.025ms returns 0
T340C 000:462.337 JLINK_WriteReg(R7, 0x00000000)
T340C 000:462.355 - 0.025ms returns 0
T340C 000:462.370 JLINK_WriteReg(R8, 0x00000000)
T340C 000:462.397 - 0.034ms returns 0
T340C 000:462.413 JLINK_WriteReg(R9, 0x20000188)
T340C 000:462.431 - 0.025ms returns 0
T340C 000:462.446 JLINK_WriteReg(R10, 0x00000000)
T340C 000:462.465 - 0.026ms returns 0
T340C 000:462.480 JLINK_WriteReg(R11, 0x00000000)
T340C 000:462.498 - 0.025ms returns 0
T340C 000:462.513 JLINK_WriteReg(R12, 0x00000000)
T340C 000:462.531 - 0.025ms returns 0
T340C 000:462.546 JLINK_WriteReg(R13 (SP), 0x20001000)
T340C 000:462.566 - 0.026ms returns 0
T340C 000:462.580 JLINK_WriteReg(R14, 0x20000001)
T340C 000:462.599 - 0.025ms returns 0
T340C 000:462.614 JLINK_WriteReg(R15 (PC), 0x20000040)
T340C 000:462.633 - 0.026ms returns 0
T340C 000:462.648 JLINK_WriteReg(XPSR, 0x01000000)
T340C 000:462.666 - 0.025ms returns 0
T340C 000:462.681 JLINK_WriteReg(MSP, 0x20001000)
T340C 000:462.699 - 0.025ms returns 0
T340C 000:462.714 JLINK_WriteReg(PSP, 0x20001000)
T340C 000:462.732 - 0.025ms returns 0
T340C 000:462.747 JLINK_WriteReg(CFBP, 0x00000000)
T340C 000:462.766 - 0.025ms returns 0
T340C 000:462.781 JLINK_SetBPEx(Addr = 0x20000000, Type = 0xFFFFFFF2)
T340C 000:462.812   CPU_ReadMem(4 bytes @ 0x20000000)
T340C 000:463.524   CPU_WriteMem(4 bytes @ 0x20000000)
T340C 000:463.982   CPU_ReadMem(4 bytes @ 0x20000000)
T340C 000:464.419   CPU_WriteMem(4 bytes @ 0x20000000)
T340C 000:464.936   CPU_ReadMem(2 bytes @ 0x20000000)
T340C 000:465.392 - 2.629ms returns 0x00000001
T340C 000:465.468 JLINK_Go()
T340C 000:465.502   CPU_WriteMem(2 bytes @ 0x20000000)
T340C 000:466.322   CPU_ReadMem(4 bytes @ 0xE0001000)
T340C 000:466.843   CPU_WriteMem(4 bytes @ 0xE0001000)
T340C 000:466.871   CPU_WriteMem(4 bytes @ 0xE0002008)
T340C 000:466.892   CPU_WriteMem(4 bytes @ 0xE000200C)
T340C 000:468.033   CPU_WriteMem(4 bytes @ 0xE0001004)
T340C 000:472.515 - 7.070ms
T340C 000:472.593 JLINK_IsHalted()
T340C 000:477.405   CPU_ReadMem(2 bytes @ 0x20000000)
T340C 000:477.945 - 5.394ms returns TRUE
T340C 000:478.099 JLINK_ReadReg(R15 (PC))
T340C 000:478.159 - 0.076ms returns 0x20000000
T340C 000:478.293 JLINK_ClrBPEx(BPHandle = 0x00000001)
T340C 000:478.346 - 0.070ms returns 0x00
T340C 000:478.381 JLINK_ReadReg(R0)
T340C 000:478.423 - 0.057ms returns 0x00000000
T340C 000:479.068 JLINK_HasError()
T340C 000:479.116 JLINK_WriteReg(R0, 0x00000000)
T340C 000:479.157 - 0.048ms returns 0
T340C 000:479.174 JLINK_WriteReg(R1, 0x00B71B00)
T340C 000:479.197 - 0.029ms returns 0
T340C 000:479.212 JLINK_WriteReg(R2, 0x00000001)
T340C 000:479.233 - 0.028ms returns 0
T340C 000:479.249 JLINK_WriteReg(R3, 0x00000000)
T340C 000:479.269 - 0.028ms returns 0
T340C 000:479.285 JLINK_WriteReg(R4, 0x00000000)
T340C 000:479.306 - 0.028ms returns 0
T340C 000:479.322 JLINK_WriteReg(R5, 0x00000000)
T340C 000:479.346 - 0.031ms returns 0
T340C 000:479.361 JLINK_WriteReg(R6, 0x00000000)
T340C 000:479.382 - 0.027ms returns 0
T340C 000:479.397 JLINK_WriteReg(R7, 0x00000000)
T340C 000:479.417 - 0.027ms returns 0
T340C 000:479.433 JLINK_WriteReg(R8, 0x00000000)
T340C 000:479.453 - 0.027ms returns 0
T340C 000:479.469 JLINK_WriteReg(R9, 0x20000188)
T340C 000:479.489 - 0.027ms returns 0
T340C 000:479.505 JLINK_WriteReg(R10, 0x00000000)
T340C 000:479.525 - 0.028ms returns 0
T340C 000:479.541 JLINK_WriteReg(R11, 0x00000000)
T340C 000:479.561 - 0.027ms returns 0
T340C 000:479.576 JLINK_WriteReg(R12, 0x00000000)
T340C 000:479.597 - 0.027ms returns 0
T340C 000:479.612 JLINK_WriteReg(R13 (SP), 0x20001000)
T340C 000:479.634 - 0.029ms returns 0
T340C 000:479.650 JLINK_WriteReg(R14, 0x20000001)
T340C 000:479.670 - 0.027ms returns 0
T340C 000:479.685 JLINK_WriteReg(R15 (PC), 0x20000048)
T340C 000:479.706 - 0.028ms returns 0
T340C 000:479.721 JLINK_WriteReg(XPSR, 0x01000000)
T340C 000:479.742 - 0.027ms returns 0
T340C 000:479.757 JLINK_WriteReg(MSP, 0x20001000)
T340C 000:479.778 - 0.027ms returns 0
T340C 000:479.793 JLINK_WriteReg(PSP, 0x20001000)
T340C 000:479.814 - 0.027ms returns 0
T340C 000:479.829 JLINK_WriteReg(CFBP, 0x00000000)
T340C 000:479.850 - 0.027ms returns 0
T340C 000:479.866 JLINK_SetBPEx(Addr = 0x20000000, Type = 0xFFFFFFF2)
T340C 000:479.888 - 0.029ms returns 0x00000002
T340C 000:479.904 JLINK_Go()
T340C 000:479.937   CPU_ReadMem(4 bytes @ 0xE0001000)
T340C 000:480.912   CPU_WriteMem(4 bytes @ 0xE0001000)
T340C 000:485.705 - 5.866ms
T340C 000:485.956 JLINK_IsHalted()
T340C 000:523.811   CPU_ReadMem(2 bytes @ 0x20000000)
T340C 000:524.535 - 38.595ms returns TRUE
T340C 000:524.590 JLINK_ReadReg(R15 (PC))
T340C 000:524.607 - 0.019ms returns 0x20000000
T340C 000:524.614 JLINK_ClrBPEx(BPHandle = 0x00000002)
T340C 000:524.627 - 0.015ms returns 0x00
T340C 000:524.634 JLINK_ReadReg(R0)
T340C 000:524.644 - 0.013ms returns 0x00000000
T340C 000:576.178 JLINK_HasError()
T340C 000:576.220 JLINK_WriteReg(R0, 0x00000001)
T340C 000:576.251 - 0.036ms returns 0
T340C 000:576.262 JLINK_WriteReg(R1, 0x00B71B00)
T340C 000:576.277 - 0.019ms returns 0
T340C 000:576.287 JLINK_WriteReg(R2, 0x00000001)
T340C 000:576.300 - 0.018ms returns 0
T340C 000:576.310 JLINK_WriteReg(R3, 0x00000000)
T340C 000:576.324 - 0.018ms returns 0
T340C 000:576.337 JLINK_WriteReg(R4, 0x00000000)
T340C 000:576.353 - 0.020ms returns 0
T340C 000:576.363 JLINK_WriteReg(R5, 0x00000000)
T340C 000:576.377 - 0.018ms returns 0
T340C 000:576.387 JLINK_WriteReg(R6, 0x00000000)
T340C 000:576.401 - 0.018ms returns 0
T340C 000:576.412 JLINK_WriteReg(R7, 0x00000000)
T340C 000:576.426 - 0.018ms returns 0
T340C 000:576.436 JLINK_WriteReg(R8, 0x00000000)
T340C 000:576.449 - 0.018ms returns 0
T340C 000:576.460 JLINK_WriteReg(R9, 0x20000188)
T340C 000:576.473 - 0.018ms returns 0
T340C 000:576.484 JLINK_WriteReg(R10, 0x00000000)
T340C 000:576.498 - 0.018ms returns 0
T340C 000:576.508 JLINK_WriteReg(R11, 0x00000000)
T340C 000:576.522 - 0.018ms returns 0
T340C 000:576.532 JLINK_WriteReg(R12, 0x00000000)
T340C 000:576.546 - 0.018ms returns 0
T340C 000:576.556 JLINK_WriteReg(R13 (SP), 0x20001000)
T340C 000:576.570 - 0.019ms returns 0
T340C 000:576.581 JLINK_WriteReg(R14, 0x20000001)
T340C 000:576.594 - 0.018ms returns 0
T340C 000:576.605 JLINK_WriteReg(R15 (PC), 0x20000044)
T340C 000:576.619 - 0.019ms returns 0
T340C 000:576.629 JLINK_WriteReg(XPSR, 0x01000000)
T340C 000:576.643 - 0.018ms returns 0
T340C 000:576.653 JLINK_WriteReg(MSP, 0x20001000)
T340C 000:576.667 - 0.018ms returns 0
T340C 000:576.678 JLINK_WriteReg(PSP, 0x20001000)
T340C 000:576.691 - 0.018ms returns 0
T340C 000:576.701 JLINK_WriteReg(CFBP, 0x00000000)
T340C 000:576.715 - 0.018ms returns 0
T340C 000:576.726 JLINK_SetBPEx(Addr = 0x20000000, Type = 0xFFFFFFF2)
T340C 000:576.742 - 0.021ms returns 0x00000003
T340C 000:576.753 JLINK_Go()
T340C 000:576.779   CPU_ReadMem(4 bytes @ 0xE0001000)
T340C 000:577.611   CPU_WriteMem(4 bytes @ 0xE0001000)
T340C 000:582.189 - 5.478ms
T340C 000:582.316 JLINK_IsHalted()
T340C 000:587.093   CPU_ReadMem(2 bytes @ 0x20000000)
T340C 000:587.695 - 5.398ms returns TRUE
T340C 000:587.768 JLINK_ReadReg(R15 (PC))
T340C 000:587.791 - 0.028ms returns 0x20000000
T340C 000:587.802 JLINK_ClrBPEx(BPHandle = 0x00000003)
T340C 000:587.821 - 0.023ms returns 0x00
T340C 000:587.831 JLINK_ReadReg(R0)
T340C 000:587.845 - 0.018ms returns 0x00000000
T340C 000:591.060 JLINK_WriteMem(0x20000000, 0x18C Bytes, ...)
T340C 000:591.082   Data:  00 BE 0A E0 0D 78 2D 06 68 40 08 24 40 00 00 D3 ...
T340C 000:591.119   CPU_WriteMem(396 bytes @ 0x20000000)
T340C 000:595.080 - 4.065ms returns 0x18C
T340C 000:595.288 JLINK_HasError()
T340C 000:595.318 JLINK_WriteReg(R0, 0x00000000)
T340C 000:595.353 - 0.040ms returns 0
T340C 000:595.364 JLINK_WriteReg(R1, 0x00B71B00)
T340C 000:595.379 - 0.020ms returns 0
T340C 000:595.390 JLINK_WriteReg(R2, 0x00000002)
T340C 000:595.404 - 0.019ms returns 0
T340C 000:595.415 JLINK_WriteReg(R3, 0x00000000)
T340C 000:595.429 - 0.018ms returns 0
T340C 000:595.439 JLINK_WriteReg(R4, 0x00000000)
T340C 000:595.453 - 0.018ms returns 0
T340C 000:595.463 JLINK_WriteReg(R5, 0x00000000)
T340C 000:595.477 - 0.018ms returns 0
T340C 000:595.487 JLINK_WriteReg(R6, 0x00000000)
T340C 000:595.501 - 0.018ms returns 0
T340C 000:595.511 JLINK_WriteReg(R7, 0x00000000)
T340C 000:595.524 - 0.018ms returns 0
T340C 000:595.535 JLINK_WriteReg(R8, 0x00000000)
T340C 000:595.549 - 0.019ms returns 0
T340C 000:595.559 JLINK_WriteReg(R9, 0x20000188)
T340C 000:595.573 - 0.019ms returns 0
T340C 000:595.584 JLINK_WriteReg(R10, 0x00000000)
T340C 000:595.597 - 0.018ms returns 0
T340C 000:595.608 JLINK_WriteReg(R11, 0x00000000)
T340C 000:595.622 - 0.018ms returns 0
T340C 000:595.632 JLINK_WriteReg(R12, 0x00000000)
T340C 000:595.646 - 0.018ms returns 0
T340C 000:595.656 JLINK_WriteReg(R13 (SP), 0x20001000)
T340C 000:595.674 - 0.023ms returns 0
T340C 000:595.685 JLINK_WriteReg(R14, 0x20000001)
T340C 000:595.698 - 0.018ms returns 0
T340C 000:595.708 JLINK_WriteReg(R15 (PC), 0x20000040)
T340C 000:595.722 - 0.018ms returns 0
T340C 000:595.732 JLINK_WriteReg(XPSR, 0x01000000)
T340C 000:595.745 - 0.018ms returns 0
T340C 000:595.755 JLINK_WriteReg(MSP, 0x20001000)
T340C 000:595.769 - 0.018ms returns 0
T340C 000:595.779 JLINK_WriteReg(PSP, 0x20001000)
T340C 000:595.797 - 0.025ms returns 0
T340C 000:595.810 JLINK_WriteReg(CFBP, 0x00000000)
T340C 000:595.824 - 0.018ms returns 0
T340C 000:595.835 JLINK_SetBPEx(Addr = 0x20000000, Type = 0xFFFFFFF2)
T340C 000:595.859   CPU_ReadMem(4 bytes @ 0x20000000)
T340C 000:596.683   CPU_WriteMem(4 bytes @ 0x20000000)
T340C 000:597.256   CPU_ReadMem(4 bytes @ 0x20000000)
T340C 000:597.775   CPU_WriteMem(4 bytes @ 0x20000000)
T340C 000:598.271   CPU_ReadMem(2 bytes @ 0x20000000)
T340C 000:598.699 - 2.888ms returns 0x00000004
T340C 000:598.803 JLINK_Go()
T340C 000:598.830   CPU_WriteMem(2 bytes @ 0x20000000)
T340C 000:599.708   CPU_ReadMem(4 bytes @ 0xE0001000)
T340C 000:600.175   CPU_WriteMem(4 bytes @ 0xE0001000)
T340C 000:604.486 - 5.703ms
T340C 000:604.540 JLINK_IsHalted()
T340C 000:608.562   CPU_ReadMem(2 bytes @ 0x20000000)
T340C 000:609.138 - 4.628ms returns TRUE
T340C 000:609.250 JLINK_ReadReg(R15 (PC))
T340C 000:609.279 - 0.036ms returns 0x20000000
T340C 000:609.296 JLINK_ClrBPEx(BPHandle = 0x00000004)
T340C 000:609.321 - 0.032ms returns 0x00
T340C 000:609.338 JLINK_ReadReg(R0)
T340C 000:609.359 - 0.027ms returns 0x00000000
T340C 000:609.719 JLINK_WriteMem(0x2000018C, 0x200 Bytes, ...)
T340C 000:609.739   Data:  58 0D 00 20 81 01 00 00 8F 01 00 00 91 01 00 00 ...
T340C 000:609.778   CPU_WriteMem(512 bytes @ 0x2000018C)
T340C 000:614.967 - 5.279ms returns 0x200
T340C 000:615.082 JLINK_HasError()
T340C 000:615.101 JLINK_WriteReg(R0, 0x00000000)
T340C 000:615.125 - 0.031ms returns 0
T340C 000:615.140 JLINK_WriteReg(R1, 0x00000200)
T340C 000:615.154 - 0.020ms returns 0
T340C 000:615.168 JLINK_WriteReg(R2, 0x2000018C)
T340C 000:615.181 - 0.019ms returns 0
T340C 000:615.195 JLINK_WriteReg(R3, 0x00000000)
T340C 000:615.208 - 0.019ms returns 0
T340C 000:615.221 JLINK_WriteReg(R4, 0x00000000)
T340C 000:615.234 - 0.019ms returns 0
T340C 000:615.248 JLINK_WriteReg(R5, 0x00000000)
T340C 000:615.261 - 0.019ms returns 0
T340C 000:615.275 JLINK_WriteReg(R6, 0x00000000)
T340C 000:615.288 - 0.019ms returns 0
T340C 000:615.302 JLINK_WriteReg(R7, 0x00000000)
T340C 000:615.315 - 0.019ms returns 0
T340C 000:615.328 JLINK_WriteReg(R8, 0x00000000)
T340C 000:615.342 - 0.019ms returns 0
T340C 000:615.355 JLINK_WriteReg(R9, 0x20000188)
T340C 000:615.368 - 0.019ms returns 0
T340C 000:615.382 JLINK_WriteReg(R10, 0x00000000)
T340C 000:615.395 - 0.019ms returns 0
T340C 000:615.409 JLINK_WriteReg(R11, 0x00000000)
T340C 000:615.422 - 0.019ms returns 0
T340C 000:615.436 JLINK_WriteReg(R12, 0x00000000)
T340C 000:615.448 - 0.019ms returns 0
T340C 000:615.462 JLINK_WriteReg(R13 (SP), 0x20001000)
T340C 000:615.476 - 0.020ms returns 0
T340C 000:615.490 JLINK_WriteReg(R14, 0x20000001)
T340C 000:615.503 - 0.019ms returns 0
T340C 000:615.517 JLINK_WriteReg(R15 (PC), 0x200000EC)
T340C 000:615.530 - 0.019ms returns 0
T340C 000:615.544 JLINK_WriteReg(XPSR, 0x01000000)
T340C 000:615.557 - 0.019ms returns 0
T340C 000:615.570 JLINK_WriteReg(MSP, 0x20001000)
T340C 000:615.583 - 0.019ms returns 0
T340C 000:615.597 JLINK_WriteReg(PSP, 0x20001000)
T340C 000:615.610 - 0.019ms returns 0
T340C 000:615.624 JLINK_WriteReg(CFBP, 0x00000000)
T340C 000:615.637 - 0.019ms returns 0
T340C 000:615.651 JLINK_SetBPEx(Addr = 0x20000000, Type = 0xFFFFFFF2)
T340C 000:615.666 - 0.021ms returns 0x00000005
T340C 000:615.687 JLINK_Go()
T340C 000:615.706   CPU_ReadMem(4 bytes @ 0xE0001000)
T340C 000:616.584   CPU_WriteMem(4 bytes @ 0xE0001000)
T340C 000:621.246 - 5.597ms
T340C 000:621.326 JLINK_IsHalted()
T340C 000:622.395 - 1.085ms returns FALSE
T340C 000:622.449 JLINK_HasError()
T340C 000:633.167 JLINK_IsHalted()
T340C 000:638.027   CPU_ReadMem(2 bytes @ 0x20000000)
T340C 000:638.511 - 5.395ms returns TRUE
T340C 000:638.622 JLINK_ReadReg(R15 (PC))
T340C 000:638.644 - 0.028ms returns 0x20000000
T340C 000:638.663 JLINK_ClrBPEx(BPHandle = 0x00000005)
T340C 000:638.677 - 0.020ms returns 0x00
T340C 000:638.692 JLINK_ReadReg(R0)
T340C 000:638.705 - 0.020ms returns 0x00000000
T340C 000:639.046 JLINK_WriteMem(0x2000018C, 0x200 Bytes, ...)
T340C 000:639.070   Data:  A2 1A 91 40 08 43 19 46 10 BD 43 43 51 43 30 B5 ...
T340C 000:639.088   CPU_WriteMem(512 bytes @ 0x2000018C)
T340C 000:644.190 - 5.164ms returns 0x200
T340C 000:644.265 JLINK_HasError()
T340C 000:644.285 JLINK_WriteReg(R0, 0x00000200)
T340C 000:644.301 - 0.023ms returns 0
T340C 000:644.317 JLINK_WriteReg(R1, 0x00000200)
T340C 000:644.331 - 0.020ms returns 0
T340C 000:644.345 JLINK_WriteReg(R2, 0x2000018C)
T340C 000:644.359 - 0.019ms returns 0
T340C 000:644.372 JLINK_WriteReg(R3, 0x00000000)
T340C 000:644.386 - 0.020ms returns 0
T340C 000:644.400 JLINK_WriteReg(R4, 0x00000000)
T340C 000:644.413 - 0.020ms returns 0
T340C 000:644.427 JLINK_WriteReg(R5, 0x00000000)
T340C 000:644.440 - 0.020ms returns 0
T340C 000:644.454 JLINK_WriteReg(R6, 0x00000000)
T340C 000:644.467 - 0.019ms returns 0
T340C 000:644.481 JLINK_WriteReg(R7, 0x00000000)
T340C 000:644.506 - 0.034ms returns 0
T340C 000:644.522 JLINK_WriteReg(R8, 0x00000000)
T340C 000:644.530 - 0.011ms returns 0
T340C 000:644.537 JLINK_WriteReg(R9, 0x20000188)
T340C 000:644.544 - 0.010ms returns 0
T340C 000:644.551 JLINK_WriteReg(R10, 0x00000000)
T340C 000:644.558 - 0.010ms returns 0
T340C 000:644.565 JLINK_WriteReg(R11, 0x00000000)
T340C 000:644.572 - 0.010ms returns 0
T340C 000:644.579 JLINK_WriteReg(R12, 0x00000000)
T340C 000:644.586 - 0.010ms returns 0
T340C 000:644.593 JLINK_WriteReg(R13 (SP), 0x20001000)
T340C 000:644.600 - 0.010ms returns 0
T340C 000:644.607 JLINK_WriteReg(R14, 0x20000001)
T340C 000:644.615 - 0.010ms returns 0
T340C 000:644.621 JLINK_WriteReg(R15 (PC), 0x200000EC)
T340C 000:644.628 - 0.009ms returns 0
T340C 000:644.634 JLINK_WriteReg(XPSR, 0x01000000)
T340C 000:644.641 - 0.009ms returns 0
T340C 000:644.647 JLINK_WriteReg(MSP, 0x20001000)
T340C 000:644.654 - 0.010ms returns 0
T340C 000:644.661 JLINK_WriteReg(PSP, 0x20001000)
T340C 000:644.668 - 0.009ms returns 0
T340C 000:644.675 JLINK_WriteReg(CFBP, 0x00000000)
T340C 000:644.681 - 0.009ms returns 0
T340C 000:644.688 JLINK_SetBPEx(Addr = 0x20000000, Type = 0xFFFFFFF2)
T340C 000:644.695 - 0.010ms returns 0x00000006
T340C 000:644.702 JLINK_Go()
T340C 000:644.712   CPU_ReadMem(4 bytes @ 0xE0001000)
T340C 000:645.610   CPU_WriteMem(4 bytes @ 0xE0001000)
T340C 000:650.563 - 5.898ms
T340C 000:650.710 JLINK_IsHalted()
T340C 000:651.753 - 1.066ms returns FALSE
T340C 000:651.814 JLINK_HasError()
T340C 000:653.845 JLINK_IsHalted()
T340C 000:654.750 - 0.931ms returns FALSE
T340C 000:654.812 JLINK_HasError()
T340C 000:656.719 JLINK_IsHalted()
T340C 000:661.380   CPU_ReadMem(2 bytes @ 0x20000000)
T340C 000:661.950 - 5.253ms returns TRUE
T340C 000:662.024 JLINK_ReadReg(R15 (PC))
T340C 000:662.049 - 0.032ms returns 0x20000000
T340C 000:662.065 JLINK_ClrBPEx(BPHandle = 0x00000006)
T340C 000:662.079 - 0.021ms returns 0x00
T340C 000:662.094 JLINK_ReadReg(R0)
T340C 000:662.108 - 0.020ms returns 0x00000000
T340C 000:662.585 JLINK_WriteMem(0x2000018C, 0x200 Bytes, ...)
T340C 000:662.610   Data:  CA 0F 00 D0 49 42 03 10 00 D3 40 42 53 40 00 22 ...
T340C 000:662.638   CPU_WriteMem(512 bytes @ 0x2000018C)
T340C 000:667.379 - 4.809ms returns 0x200
T340C 000:667.440 JLINK_HasError()
T340C 000:667.450 JLINK_WriteReg(R0, 0x00000400)
T340C 000:667.460 - 0.013ms returns 0
T340C 000:667.467 JLINK_WriteReg(R1, 0x00000200)
T340C 000:667.474 - 0.010ms returns 0
T340C 000:667.485 JLINK_WriteReg(R2, 0x2000018C)
T340C 000:667.491 - 0.009ms returns 0
T340C 000:667.498 JLINK_WriteReg(R3, 0x00000000)
T340C 000:667.505 - 0.009ms returns 0
T340C 000:667.512 JLINK_WriteReg(R4, 0x00000000)
T340C 000:667.518 - 0.009ms returns 0
T340C 000:667.525 JLINK_WriteReg(R5, 0x00000000)
T340C 000:667.532 - 0.009ms returns 0
T340C 000:667.539 JLINK_WriteReg(R6, 0x00000000)
T340C 000:667.545 - 0.009ms returns 0
T340C 000:667.552 JLINK_WriteReg(R7, 0x00000000)
T340C 000:667.558 - 0.009ms returns 0
T340C 000:667.565 JLINK_WriteReg(R8, 0x00000000)
T340C 000:667.572 - 0.009ms returns 0
T340C 000:667.580 JLINK_WriteReg(R9, 0x20000188)
T340C 000:667.590 - 0.015ms returns 0
T340C 000:667.599 JLINK_WriteReg(R10, 0x00000000)
T340C 000:667.605 - 0.009ms returns 0
T340C 000:667.612 JLINK_WriteReg(R11, 0x00000000)
T340C 000:667.619 - 0.009ms returns 0
T340C 000:667.625 JLINK_WriteReg(R12, 0x00000000)
T340C 000:667.632 - 0.009ms returns 0
T340C 000:667.639 JLINK_WriteReg(R13 (SP), 0x20001000)
T340C 000:667.646 - 0.010ms returns 0
T340C 000:667.653 JLINK_WriteReg(R14, 0x20000001)
T340C 000:667.659 - 0.009ms returns 0
T340C 000:667.666 JLINK_WriteReg(R15 (PC), 0x200000EC)
T340C 000:667.673 - 0.009ms returns 0
T340C 000:667.680 JLINK_WriteReg(XPSR, 0x01000000)
T340C 000:667.686 - 0.009ms returns 0
T340C 000:667.693 JLINK_WriteReg(MSP, 0x20001000)
T340C 000:667.700 - 0.009ms returns 0
T340C 000:667.706 JLINK_WriteReg(PSP, 0x20001000)
T340C 000:667.713 - 0.009ms returns 0
T340C 000:667.720 JLINK_WriteReg(CFBP, 0x00000000)
T340C 000:667.726 - 0.009ms returns 0
T340C 000:667.734 JLINK_SetBPEx(Addr = 0x20000000, Type = 0xFFFFFFF2)
T340C 000:667.742 - 0.011ms returns 0x00000007
T340C 000:667.749 JLINK_Go()
T340C 000:667.760   CPU_ReadMem(4 bytes @ 0xE0001000)
T340C 000:668.477   CPU_WriteMem(4 bytes @ 0xE0001000)
T340C 000:673.518 - 5.783ms
T340C 000:673.573 JLINK_IsHalted()
T340C 000:674.288 - 0.729ms returns FALSE
T340C 000:674.343 JLINK_HasError()
T340C 000:677.621 JLINK_IsHalted()
T340C 000:678.693 - 1.094ms returns FALSE
T340C 000:678.773 JLINK_HasError()
T340C 000:680.574 JLINK_IsHalted()
T340C 000:684.903   CPU_ReadMem(2 bytes @ 0x20000000)
T340C 000:685.437 - 4.877ms returns TRUE
T340C 000:685.489 JLINK_ReadReg(R15 (PC))
T340C 000:685.500 - 0.013ms returns 0x20000000
T340C 000:685.507 JLINK_ClrBPEx(BPHandle = 0x00000007)
T340C 000:685.514 - 0.010ms returns 0x00
T340C 000:685.521 JLINK_ReadReg(R0)
T340C 000:685.529 - 0.011ms returns 0x00000000
T340C 000:685.835 JLINK_WriteMem(0x2000018C, 0x200 Bytes, ...)
T340C 000:685.846   Data:  A6 46 64 0B 3C 43 03 95 02 94 74 46 04 9D E4 04 ...
T340C 000:685.861   CPU_WriteMem(512 bytes @ 0x2000018C)
T340C 000:690.595 - 4.774ms returns 0x200
T340C 000:690.647 JLINK_HasError()
T340C 000:690.656 JLINK_WriteReg(R0, 0x00000600)
T340C 000:690.664 - 0.011ms returns 0
T340C 000:690.671 JLINK_WriteReg(R1, 0x00000200)
T340C 000:690.678 - 0.009ms returns 0
T340C 000:690.685 JLINK_WriteReg(R2, 0x2000018C)
T340C 000:690.691 - 0.009ms returns 0
T340C 000:690.698 JLINK_WriteReg(R3, 0x00000000)
T340C 000:690.704 - 0.009ms returns 0
T340C 000:690.711 JLINK_WriteReg(R4, 0x00000000)
T340C 000:690.717 - 0.009ms returns 0
T340C 000:690.724 JLINK_WriteReg(R5, 0x00000000)
T340C 000:690.730 - 0.009ms returns 0
T340C 000:690.737 JLINK_WriteReg(R6, 0x00000000)
T340C 000:690.743 - 0.009ms returns 0
T340C 000:690.750 JLINK_WriteReg(R7, 0x00000000)
T340C 000:690.756 - 0.009ms returns 0
T340C 000:690.763 JLINK_WriteReg(R8, 0x00000000)
T340C 000:690.769 - 0.009ms returns 0
T340C 000:690.776 JLINK_WriteReg(R9, 0x20000188)
T340C 000:690.782 - 0.009ms returns 0
T340C 000:690.788 JLINK_WriteReg(R10, 0x00000000)
T340C 000:690.795 - 0.009ms returns 0
T340C 000:690.801 JLINK_WriteReg(R11, 0x00000000)
T340C 000:690.807 - 0.009ms returns 0
T340C 000:690.814 JLINK_WriteReg(R12, 0x00000000)
T340C 000:690.820 - 0.009ms returns 0
T340C 000:690.827 JLINK_WriteReg(R13 (SP), 0x20001000)
T340C 000:690.833 - 0.009ms returns 0
T340C 000:690.840 JLINK_WriteReg(R14, 0x20000001)
T340C 000:690.846 - 0.009ms returns 0
T340C 000:690.853 JLINK_WriteReg(R15 (PC), 0x200000EC)
T340C 000:690.859 - 0.009ms returns 0
T340C 000:690.866 JLINK_WriteReg(XPSR, 0x01000000)
T340C 000:690.872 - 0.009ms returns 0
T340C 000:690.879 JLINK_WriteReg(MSP, 0x20001000)
T340C 000:690.885 - 0.009ms returns 0
T340C 000:690.892 JLINK_WriteReg(PSP, 0x20001000)
T340C 000:690.898 - 0.009ms returns 0
T340C 000:690.905 JLINK_WriteReg(CFBP, 0x00000000)
T340C 000:690.911 - 0.009ms returns 0
T340C 000:690.918 JLINK_SetBPEx(Addr = 0x20000000, Type = 0xFFFFFFF2)
T340C 000:690.925 - 0.010ms returns 0x00000008
T340C 000:690.932 JLINK_Go()
T340C 000:690.980   CPU_ReadMem(4 bytes @ 0xE0001000)
T340C 000:691.466   CPU_WriteMem(4 bytes @ 0xE0001000)
T340C 000:696.067 - 5.174ms
T340C 000:696.160 JLINK_IsHalted()
T340C 000:697.231 - 1.090ms returns FALSE
T340C 000:697.304 JLINK_HasError()
T340C 000:698.842 JLINK_IsHalted()
T340C 000:699.630 - 0.811ms returns FALSE
T340C 000:699.708 JLINK_HasError()
T340C 000:700.924 JLINK_IsHalted()
T340C 000:701.593 - 0.690ms returns FALSE
T340C 000:701.672 JLINK_HasError()
T340C 000:702.940 JLINK_IsHalted()
T340C 000:707.282   CPU_ReadMem(2 bytes @ 0x20000000)
T340C 000:707.852 - 4.937ms returns TRUE
T340C 000:707.942 JLINK_ReadReg(R15 (PC))
T340C 000:707.960 - 0.023ms returns 0x20000000
T340C 000:707.973 JLINK_ClrBPEx(BPHandle = 0x00000008)
T340C 000:707.994 - 0.026ms returns 0x00
T340C 000:708.007 JLINK_ReadReg(R0)
T340C 000:708.018 - 0.017ms returns 0x00000000
T340C 000:708.468 JLINK_WriteMem(0x2000018C, 0x200 Bytes, ...)
T340C 000:708.487   Data:  61 02 00 20 07 9B 89 19 04 46 5C 41 02 23 00 2C ...
T340C 000:708.512   CPU_WriteMem(512 bytes @ 0x2000018C)
T340C 000:713.521 - 5.077ms returns 0x200
T340C 000:713.594 JLINK_HasError()
T340C 000:713.605 JLINK_WriteReg(R0, 0x00000800)
T340C 000:713.615 - 0.014ms returns 0
T340C 000:713.623 JLINK_WriteReg(R1, 0x00000200)
T340C 000:713.631 - 0.011ms returns 0
T340C 000:713.638 JLINK_WriteReg(R2, 0x2000018C)
T340C 000:713.645 - 0.010ms returns 0
T340C 000:713.653 JLINK_WriteReg(R3, 0x00000000)
T340C 000:713.660 - 0.010ms returns 0
T340C 000:713.667 JLINK_WriteReg(R4, 0x00000000)
T340C 000:713.673 - 0.009ms returns 0
T340C 000:713.680 JLINK_WriteReg(R5, 0x00000000)
T340C 000:713.686 - 0.009ms returns 0
T340C 000:713.693 JLINK_WriteReg(R6, 0x00000000)
T340C 000:713.699 - 0.009ms returns 0
T340C 000:713.706 JLINK_WriteReg(R7, 0x00000000)
T340C 000:713.712 - 0.009ms returns 0
T340C 000:713.718 JLINK_WriteReg(R8, 0x00000000)
T340C 000:713.725 - 0.009ms returns 0
T340C 000:713.731 JLINK_WriteReg(R9, 0x20000188)
T340C 000:713.737 - 0.009ms returns 0
T340C 000:713.744 JLINK_WriteReg(R10, 0x00000000)
T340C 000:713.750 - 0.009ms returns 0
T340C 000:713.757 JLINK_WriteReg(R11, 0x00000000)
T340C 000:713.763 - 0.009ms returns 0
T340C 000:713.770 JLINK_WriteReg(R12, 0x00000000)
T340C 000:713.776 - 0.009ms returns 0
T340C 000:713.782 JLINK_WriteReg(R13 (SP), 0x20001000)
T340C 000:713.791 - 0.011ms returns 0
T340C 000:713.797 JLINK_WriteReg(R14, 0x20000001)
T340C 000:713.804 - 0.009ms returns 0
T340C 000:713.810 JLINK_WriteReg(R15 (PC), 0x200000EC)
T340C 000:713.817 - 0.009ms returns 0
T340C 000:713.823 JLINK_WriteReg(XPSR, 0x01000000)
T340C 000:713.830 - 0.009ms returns 0
T340C 000:713.836 JLINK_WriteReg(MSP, 0x20001000)
T340C 000:713.843 - 0.009ms returns 0
T340C 000:713.849 JLINK_WriteReg(PSP, 0x20001000)
T340C 000:713.856 - 0.009ms returns 0
T340C 000:713.862 JLINK_WriteReg(CFBP, 0x00000000)
T340C 000:713.868 - 0.009ms returns 0
T340C 000:713.875 JLINK_SetBPEx(Addr = 0x20000000, Type = 0xFFFFFFF2)
T340C 000:713.883 - 0.010ms returns 0x00000009
T340C 000:713.890 JLINK_Go()
T340C 000:713.901   CPU_ReadMem(4 bytes @ 0xE0001000)
T340C 000:714.523   CPU_WriteMem(4 bytes @ 0xE0001000)
T340C 000:718.904 - 5.032ms
T340C 000:718.960 JLINK_IsHalted()
T340C 000:719.515 - 0.575ms returns FALSE
T340C 000:719.572 JLINK_HasError()
T340C 000:720.961 JLINK_IsHalted()
T340C 000:721.662 - 0.715ms returns FALSE
T340C 000:721.714 JLINK_HasError()
T340C 000:724.075 JLINK_IsHalted()
T340C 000:725.036 - 0.975ms returns FALSE
T340C 000:725.090 JLINK_HasError()
T340C 000:727.043 JLINK_IsHalted()
T340C 000:731.377   CPU_ReadMem(2 bytes @ 0x20000000)
T340C 000:731.944 - 4.923ms returns TRUE
T340C 000:732.026 JLINK_ReadReg(R15 (PC))
T340C 000:732.043 - 0.021ms returns 0x20000000
T340C 000:732.055 JLINK_ClrBPEx(BPHandle = 0x00000009)
T340C 000:732.066 - 0.015ms returns 0x00
T340C 000:732.077 JLINK_ReadReg(R0)
T340C 000:732.087 - 0.015ms returns 0x00000000
T340C 000:732.511 JLINK_WriteMem(0x2000018C, 0x200 Bytes, ...)
T340C 000:732.574   Data:  42 05 C0 12 41 18 10 46 70 47 C1 0F C9 07 00 D0 ...
T340C 000:732.599   CPU_WriteMem(512 bytes @ 0x2000018C)
T340C 000:737.504 - 5.030ms returns 0x200
T340C 000:737.703 JLINK_HasError()
T340C 000:737.743 JLINK_WriteReg(R0, 0x00000A00)
T340C 000:737.759 - 0.022ms returns 0
T340C 000:737.773 JLINK_WriteReg(R1, 0x00000200)
T340C 000:737.785 - 0.018ms returns 0
T340C 000:737.798 JLINK_WriteReg(R2, 0x2000018C)
T340C 000:737.811 - 0.018ms returns 0
T340C 000:737.823 JLINK_WriteReg(R3, 0x00000000)
T340C 000:737.835 - 0.017ms returns 0
T340C 000:737.848 JLINK_WriteReg(R4, 0x00000000)
T340C 000:737.860 - 0.017ms returns 0
T340C 000:737.873 JLINK_WriteReg(R5, 0x00000000)
T340C 000:737.885 - 0.018ms returns 0
T340C 000:737.898 JLINK_WriteReg(R6, 0x00000000)
T340C 000:737.910 - 0.017ms returns 0
T340C 000:737.922 JLINK_WriteReg(R7, 0x00000000)
T340C 000:737.934 - 0.017ms returns 0
T340C 000:737.947 JLINK_WriteReg(R8, 0x00000000)
T340C 000:737.959 - 0.017ms returns 0
T340C 000:737.971 JLINK_WriteReg(R9, 0x20000188)
T340C 000:737.983 - 0.019ms returns 0
T340C 000:737.998 JLINK_WriteReg(R10, 0x00000000)
T340C 000:738.010 - 0.017ms returns 0
T340C 000:738.023 JLINK_WriteReg(R11, 0x00000000)
T340C 000:738.035 - 0.017ms returns 0
T340C 000:738.047 JLINK_WriteReg(R12, 0x00000000)
T340C 000:738.059 - 0.017ms returns 0
T340C 000:738.072 JLINK_WriteReg(R13 (SP), 0x20001000)
T340C 000:738.085 - 0.018ms returns 0
T340C 000:738.097 JLINK_WriteReg(R14, 0x20000001)
T340C 000:738.109 - 0.017ms returns 0
T340C 000:738.122 JLINK_WriteReg(R15 (PC), 0x200000EC)
T340C 000:738.134 - 0.018ms returns 0
T340C 000:738.147 JLINK_WriteReg(XPSR, 0x01000000)
T340C 000:738.159 - 0.017ms returns 0
T340C 000:738.172 JLINK_WriteReg(MSP, 0x20001000)
T340C 000:738.184 - 0.017ms returns 0
T340C 000:738.196 JLINK_WriteReg(PSP, 0x20001000)
T340C 000:738.209 - 0.018ms returns 0
T340C 000:738.221 JLINK_WriteReg(CFBP, 0x00000000)
T340C 000:738.233 - 0.017ms returns 0
T340C 000:738.246 JLINK_SetBPEx(Addr = 0x20000000, Type = 0xFFFFFFF2)
T340C 000:738.260 - 0.019ms returns 0x0000000A
T340C 000:738.273 JLINK_Go()
T340C 000:738.292   CPU_ReadMem(4 bytes @ 0xE0001000)
T340C 000:739.163   CPU_WriteMem(4 bytes @ 0xE0001000)
T340C 000:743.832 - 5.587ms
T340C 000:743.899 JLINK_IsHalted()
T340C 000:744.906 - 1.048ms returns FALSE
T340C 000:744.992 JLINK_HasError()
T340C 000:747.049 JLINK_IsHalted()
T340C 000:747.768 - 0.736ms returns FALSE
T340C 000:747.822 JLINK_HasError()
T340C 000:748.983 JLINK_IsHalted()
T340C 000:749.863 - 0.898ms returns FALSE
T340C 000:749.921 JLINK_HasError()
T340C 000:750.982 JLINK_IsHalted()
T340C 000:755.453   CPU_ReadMem(2 bytes @ 0x20000000)
T340C 000:755.893 - 4.919ms returns TRUE
T340C 000:755.929 JLINK_ReadReg(R15 (PC))
T340C 000:755.941 - 0.016ms returns 0x20000000
T340C 000:755.951 JLINK_ClrBPEx(BPHandle = 0x0000000A)
T340C 000:755.961 - 0.013ms returns 0x00
T340C 000:755.970 JLINK_ReadReg(R0)
T340C 000:755.980 - 0.013ms returns 0x00000000
T340C 000:756.353 JLINK_WriteMem(0x2000018C, 0x200 Bytes, ...)
T340C 000:756.369   Data:  44 19 5A 41 9A 42 00 D2 49 1C 01 20 40 02 81 42 ...
T340C 000:756.388   CPU_WriteMem(512 bytes @ 0x2000018C)
T340C 000:761.597 - 5.282ms returns 0x200
T340C 000:761.751 JLINK_HasError()
T340C 000:761.791 JLINK_WriteReg(R0, 0x00000C00)
T340C 000:761.848 - 0.064ms returns 0
T340C 000:761.866 JLINK_WriteReg(R1, 0x00000200)
T340C 000:761.879 - 0.019ms returns 0
T340C 000:761.893 JLINK_WriteReg(R2, 0x2000018C)
T340C 000:761.905 - 0.018ms returns 0
T340C 000:761.919 JLINK_WriteReg(R3, 0x00000000)
T340C 000:761.932 - 0.019ms returns 0
T340C 000:761.947 JLINK_WriteReg(R4, 0x00000000)
T340C 000:761.960 - 0.020ms returns 0
T340C 000:761.975 JLINK_WriteReg(R5, 0x00000000)
T340C 000:761.991 - 0.023ms returns 0
T340C 000:762.006 JLINK_WriteReg(R6, 0x00000000)
T340C 000:762.019 - 0.020ms returns 0
T340C 000:762.034 JLINK_WriteReg(R7, 0x00000000)
T340C 000:762.048 - 0.020ms returns 0
T340C 000:762.062 JLINK_WriteReg(R8, 0x00000000)
T340C 000:762.135 - 0.083ms returns 0
T340C 000:762.154 JLINK_WriteReg(R9, 0x20000188)
T340C 000:762.168 - 0.020ms returns 0
T340C 000:762.182 JLINK_WriteReg(R10, 0x00000000)
T340C 000:762.196 - 0.020ms returns 0
T340C 000:762.211 JLINK_WriteReg(R11, 0x00000000)
T340C 000:762.224 - 0.020ms returns 0
T340C 000:762.239 JLINK_WriteReg(R12, 0x00000000)
T340C 000:762.253 - 0.020ms returns 0
T340C 000:762.268 JLINK_WriteReg(R13 (SP), 0x20001000)
T340C 000:762.282 - 0.021ms returns 0
T340C 000:762.297 JLINK_WriteReg(R14, 0x20000001)
T340C 000:762.310 - 0.020ms returns 0
T340C 000:762.325 JLINK_WriteReg(R15 (PC), 0x200000EC)
T340C 000:762.339 - 0.020ms returns 0
T340C 000:762.353 JLINK_WriteReg(XPSR, 0x01000000)
T340C 000:762.367 - 0.020ms returns 0
T340C 000:762.381 JLINK_WriteReg(MSP, 0x20001000)
T340C 000:762.395 - 0.020ms returns 0
T340C 000:762.409 JLINK_WriteReg(PSP, 0x20001000)
T340C 000:762.423 - 0.020ms returns 0
T340C 000:762.437 JLINK_WriteReg(CFBP, 0x00000000)
T340C 000:762.451 - 0.020ms returns 0
T340C 000:762.465 JLINK_SetBPEx(Addr = 0x20000000, Type = 0xFFFFFFF2)
T340C 000:762.481 - 0.022ms returns 0x0000000B
T340C 000:762.496 JLINK_Go()
T340C 000:762.518   CPU_ReadMem(4 bytes @ 0xE0001000)
T340C 000:763.356   CPU_WriteMem(4 bytes @ 0xE0001000)
T340C 000:768.146 - 5.687ms
T340C 000:768.284 JLINK_IsHalted()
T340C 000:769.645 - 1.410ms returns FALSE
T340C 000:769.827 JLINK_HasError()
T340C 000:774.058 JLINK_IsHalted()
T340C 000:778.524   CPU_ReadMem(2 bytes @ 0x20000000)
T340C 000:779.192 - 5.180ms returns TRUE
T340C 000:779.295 JLINK_ReadReg(R15 (PC))
T340C 000:779.307 - 0.015ms returns 0x20000000
T340C 000:779.315 JLINK_ClrBPEx(BPHandle = 0x0000000B)
T340C 000:779.322 - 0.010ms returns 0x00
T340C 000:779.329 JLINK_ReadReg(R0)
T340C 000:779.335 - 0.009ms returns 0x00000000
T340C 000:779.652 JLINK_WriteMem(0x2000018C, 0x200 Bytes, ...)
T340C 000:779.663   Data:  09 D3 00 2A 08 DC 11 06 09 0F 04 D0 03 21 49 07 ...
T340C 000:779.680   CPU_WriteMem(512 bytes @ 0x2000018C)
T340C 000:784.546 - 4.913ms returns 0x200
T340C 000:784.624 JLINK_HasError()
T340C 000:784.645 JLINK_WriteReg(R0, 0x00000E00)
T340C 000:784.661 - 0.023ms returns 0
T340C 000:784.676 JLINK_WriteReg(R1, 0x00000200)
T340C 000:784.690 - 0.019ms returns 0
T340C 000:784.704 JLINK_WriteReg(R2, 0x2000018C)
T340C 000:784.717 - 0.020ms returns 0
T340C 000:784.731 JLINK_WriteReg(R3, 0x00000000)
T340C 000:784.744 - 0.020ms returns 0
T340C 000:784.759 JLINK_WriteReg(R4, 0x00000000)
T340C 000:784.772 - 0.019ms returns 0
T340C 000:784.785 JLINK_WriteReg(R5, 0x00000000)
T340C 000:784.798 - 0.019ms returns 0
T340C 000:784.812 JLINK_WriteReg(R6, 0x00000000)
T340C 000:784.825 - 0.019ms returns 0
T340C 000:784.838 JLINK_WriteReg(R7, 0x00000000)
T340C 000:784.851 - 0.019ms returns 0
T340C 000:784.865 JLINK_WriteReg(R8, 0x00000000)
T340C 000:784.878 - 0.019ms returns 0
T340C 000:784.891 JLINK_WriteReg(R9, 0x20000188)
T340C 000:784.923 - 0.043ms returns 0
T340C 000:784.941 JLINK_WriteReg(R10, 0x00000000)
T340C 000:784.949 - 0.010ms returns 0
T340C 000:784.955 JLINK_WriteReg(R11, 0x00000000)
T340C 000:784.962 - 0.009ms returns 0
T340C 000:784.969 JLINK_WriteReg(R12, 0x00000000)
T340C 000:784.975 - 0.009ms returns 0
T340C 000:784.982 JLINK_WriteReg(R13 (SP), 0x20001000)
T340C 000:784.988 - 0.009ms returns 0
T340C 000:784.995 JLINK_WriteReg(R14, 0x20000001)
T340C 000:785.001 - 0.009ms returns 0
T340C 000:785.008 JLINK_WriteReg(R15 (PC), 0x200000EC)
T340C 000:785.014 - 0.009ms returns 0
T340C 000:785.021 JLINK_WriteReg(XPSR, 0x01000000)
T340C 000:785.027 - 0.009ms returns 0
T340C 000:785.034 JLINK_WriteReg(MSP, 0x20001000)
T340C 000:785.040 - 0.009ms returns 0
T340C 000:785.047 JLINK_WriteReg(PSP, 0x20001000)
T340C 000:785.053 - 0.009ms returns 0
T340C 000:785.060 JLINK_WriteReg(CFBP, 0x00000000)
T340C 000:785.066 - 0.009ms returns 0
T340C 000:785.073 JLINK_SetBPEx(Addr = 0x20000000, Type = 0xFFFFFFF2)
T340C 000:785.081 - 0.010ms returns 0x0000000C
T340C 000:785.088 JLINK_Go()
T340C 000:785.099   CPU_ReadMem(4 bytes @ 0xE0001000)
T340C 000:786.254   CPU_WriteMem(4 bytes @ 0xE0001000)
T340C 000:791.262 - 6.189ms
T340C 000:791.322 JLINK_IsHalted()
T340C 000:791.973 - 0.666ms returns FALSE
T340C 000:792.032 JLINK_HasError()
T340C 000:793.448 JLINK_IsHalted()
T340C 000:794.559 - 1.129ms returns FALSE
T340C 000:794.629 JLINK_HasError()
T340C 000:796.351 JLINK_IsHalted()
T340C 000:797.351 - 1.023ms returns FALSE
T340C 000:797.436 JLINK_HasError()
T340C 000:799.407 JLINK_IsHalted()
T340C 000:804.147   CPU_ReadMem(2 bytes @ 0x20000000)
T340C 000:804.740 - 5.347ms returns TRUE
T340C 000:804.793 JLINK_ReadReg(R15 (PC))
T340C 000:804.804 - 0.013ms returns 0x20000000
T340C 000:804.811 JLINK_ClrBPEx(BPHandle = 0x0000000C)
T340C 000:804.818 - 0.010ms returns 0x00
T340C 000:804.825 JLINK_ReadReg(R0)
T340C 000:804.832 - 0.009ms returns 0x00000000
T340C 000:805.141 JLINK_WriteMem(0x2000018C, 0x200 Bytes, ...)
T340C 000:805.153   Data:  16 E0 00 18 76 46 65 46 49 41 B7 1A 9D 41 01 91 ...
T340C 000:805.168   CPU_WriteMem(512 bytes @ 0x2000018C)
T340C 000:810.007 - 4.897ms returns 0x200
T340C 000:810.096 JLINK_HasError()
T340C 000:810.106 JLINK_WriteReg(R0, 0x00001000)
T340C 000:810.117 - 0.013ms returns 0
T340C 000:810.124 JLINK_WriteReg(R1, 0x00000200)
T340C 000:810.130 - 0.009ms returns 0
T340C 000:810.137 JLINK_WriteReg(R2, 0x2000018C)
T340C 000:810.143 - 0.009ms returns 0
T340C 000:810.150 JLINK_WriteReg(R3, 0x00000000)
T340C 000:810.156 - 0.009ms returns 0
T340C 000:810.163 JLINK_WriteReg(R4, 0x00000000)
T340C 000:810.169 - 0.009ms returns 0
T340C 000:810.176 JLINK_WriteReg(R5, 0x00000000)
T340C 000:810.182 - 0.009ms returns 0
T340C 000:810.189 JLINK_WriteReg(R6, 0x00000000)
T340C 000:810.195 - 0.009ms returns 0
T340C 000:810.202 JLINK_WriteReg(R7, 0x00000000)
T340C 000:810.208 - 0.009ms returns 0
T340C 000:810.214 JLINK_WriteReg(R8, 0x00000000)
T340C 000:810.221 - 0.009ms returns 0
T340C 000:810.227 JLINK_WriteReg(R9, 0x20000188)
T340C 000:810.234 - 0.009ms returns 0
T340C 000:810.240 JLINK_WriteReg(R10, 0x00000000)
T340C 000:810.247 - 0.010ms returns 0
T340C 000:810.255 JLINK_WriteReg(R11, 0x00000000)
T340C 000:810.261 - 0.009ms returns 0
T340C 000:810.267 JLINK_WriteReg(R12, 0x00000000)
T340C 000:810.274 - 0.009ms returns 0
T340C 000:810.280 JLINK_WriteReg(R13 (SP), 0x20001000)
T340C 000:810.287 - 0.009ms returns 0
T340C 000:810.294 JLINK_WriteReg(R14, 0x20000001)
T340C 000:810.300 - 0.009ms returns 0
T340C 000:810.307 JLINK_WriteReg(R15 (PC), 0x200000EC)
T340C 000:810.313 - 0.009ms returns 0
T340C 000:810.319 JLINK_WriteReg(XPSR, 0x01000000)
T340C 000:810.326 - 0.009ms returns 0
T340C 000:810.332 JLINK_WriteReg(MSP, 0x20001000)
T340C 000:810.338 - 0.009ms returns 0
T340C 000:810.345 JLINK_WriteReg(PSP, 0x20001000)
T340C 000:810.351 - 0.009ms returns 0
T340C 000:810.358 JLINK_WriteReg(CFBP, 0x00000000)
T340C 000:810.364 - 0.009ms returns 0
T340C 000:810.371 JLINK_SetBPEx(Addr = 0x20000000, Type = 0xFFFFFFF2)
T340C 000:810.378 - 0.010ms returns 0x0000000D
T340C 000:810.385 JLINK_Go()
T340C 000:810.396   CPU_ReadMem(4 bytes @ 0xE0001000)
T340C 000:811.380   CPU_WriteMem(4 bytes @ 0xE0001000)
T340C 000:816.522 - 6.154ms
T340C 000:816.581 JLINK_IsHalted()
T340C 000:817.250 - 0.684ms returns FALSE
T340C 000:817.306 JLINK_HasError()
T340C 000:819.375 JLINK_IsHalted()
T340C 000:820.358 - 1.001ms returns FALSE
T340C 000:820.427 JLINK_HasError()
T340C 000:822.525 JLINK_IsHalted()
T340C 000:827.233   CPU_ReadMem(2 bytes @ 0x20000000)
T340C 000:827.832 - 5.336ms returns TRUE
T340C 000:827.946 JLINK_ReadReg(R15 (PC))
T340C 000:827.968 - 0.028ms returns 0x20000000
T340C 000:827.984 JLINK_ClrBPEx(BPHandle = 0x0000000D)
T340C 000:827.999 - 0.022ms returns 0x00
T340C 000:828.015 JLINK_ReadReg(R0)
T340C 000:828.030 - 0.021ms returns 0x00000000
T340C 000:828.561 JLINK_WriteMem(0x2000018C, 0x200 Bytes, ...)
T340C 000:828.586   Data:  40 1C 0E 70 49 1C 5B 1E F9 D1 2B 07 05 D4 00 23 ...
T340C 000:828.616   CPU_WriteMem(512 bytes @ 0x2000018C)
T340C 000:833.694 - 5.169ms returns 0x200
T340C 000:833.825 JLINK_HasError()
T340C 000:833.847 JLINK_WriteReg(R0, 0x00001200)
T340C 000:833.869 - 0.029ms returns 0
T340C 000:833.886 JLINK_WriteReg(R1, 0x00000200)
T340C 000:833.903 - 0.024ms returns 0
T340C 000:833.920 JLINK_WriteReg(R2, 0x2000018C)
T340C 000:833.935 - 0.023ms returns 0
T340C 000:833.952 JLINK_WriteReg(R3, 0x00000000)
T340C 000:833.968 - 0.023ms returns 0
T340C 000:833.984 JLINK_WriteReg(R4, 0x00000000)
T340C 000:834.000 - 0.023ms returns 0
T340C 000:834.016 JLINK_WriteReg(R5, 0x00000000)
T340C 000:834.032 - 0.023ms returns 0
T340C 000:834.049 JLINK_WriteReg(R6, 0x00000000)
T340C 000:834.064 - 0.023ms returns 0
T340C 000:834.081 JLINK_WriteReg(R7, 0x00000000)
T340C 000:834.096 - 0.023ms returns 0
T340C 000:834.113 JLINK_WriteReg(R8, 0x00000000)
T340C 000:834.128 - 0.023ms returns 0
T340C 000:834.145 JLINK_WriteReg(R9, 0x20000188)
T340C 000:834.161 - 0.023ms returns 0
T340C 000:834.177 JLINK_WriteReg(R10, 0x00000000)
T340C 000:834.193 - 0.023ms returns 0
T340C 000:834.210 JLINK_WriteReg(R11, 0x00000000)
T340C 000:834.225 - 0.023ms returns 0
T340C 000:834.242 JLINK_WriteReg(R12, 0x00000000)
T340C 000:834.257 - 0.023ms returns 0
T340C 000:834.277 JLINK_WriteReg(R13 (SP), 0x20001000)
T340C 000:834.293 - 0.023ms returns 0
T340C 000:834.309 JLINK_WriteReg(R14, 0x20000001)
T340C 000:834.324 - 0.022ms returns 0
T340C 000:834.340 JLINK_WriteReg(R15 (PC), 0x200000EC)
T340C 000:834.355 - 0.022ms returns 0
T340C 000:834.370 JLINK_WriteReg(XPSR, 0x01000000)
T340C 000:834.385 - 0.022ms returns 0
T340C 000:834.401 JLINK_WriteReg(MSP, 0x20001000)
T340C 000:834.416 - 0.022ms returns 0
T340C 000:834.432 JLINK_WriteReg(PSP, 0x20001000)
T340C 000:834.447 - 0.022ms returns 0
T340C 000:834.462 JLINK_WriteReg(CFBP, 0x00000000)
T340C 000:834.477 - 0.021ms returns 0
